! 1/31/2024 9:50:40 AM
! D:\LPF.S2P
! CHANNEL.1
! TR.MEASUREMENT
! CORRECTED.DATA
# GHZ S RI R 50.0
! FREQ.GHZ         S11RE         S11IM         S21RE         S21IM         S12RE         S12IM         S22RE         S22IM         
!; PortSelection: Port_12
   0.000300000     0.0114541   -0.0021863     0.9853478   -0.0016014     0.9864308   -0.0029158    -0.0115908    0.0024906 
   0.015299250     0.0143287    0.0004367     0.9799454   -0.0909435     0.9794891   -0.0907944    -0.0140499   -0.0001137 
   0.030298500     0.0175398   -0.0012890     0.9670582   -0.1748914     0.9665060   -0.1749473    -0.0166205    0.0018000 
   0.045297750     0.0202166   -0.0046168     0.9492157   -0.2585378     0.9497209   -0.2582562    -0.0180984    0.0051905 
   0.060297000     0.0209760   -0.0068961     0.9231483   -0.3444477     0.9246973   -0.3444255    -0.0182210    0.0075061 
   0.075296250     0.0232301   -0.0082426     0.8870325   -0.4286483     0.8871186   -0.4296831    -0.0193812    0.0091489 
   0.090295500     0.0248403   -0.0130721     0.8380794   -0.5050168     0.8369175   -0.5067667    -0.0198991    0.0136081 
   0.105294750     0.0208196   -0.0160053     0.7857360   -0.5694265     0.7839075   -0.5692980    -0.0159339    0.0164999 
   0.120294000     0.0191918   -0.0161298     0.7351902   -0.6293691     0.7335477   -0.6281825    -0.0134825    0.0159578 
   0.135293250     0.0185623   -0.0210924     0.6830330   -0.6909853     0.6836460   -0.6880159    -0.0119830    0.0197048 
   0.150292500     0.0114979   -0.0262293     0.6227731   -0.7543767     0.6254553   -0.7527004    -0.0045715    0.0220490 
   0.165291750     0.0054382   -0.0257540     0.5473756   -0.8113043     0.5500818   -0.8121877     0.0016759    0.0205968 
   0.180291000     0.0033649   -0.0301219     0.4656466   -0.8534316     0.4664211   -0.8574569     0.0051797    0.0227576 
   0.195290250    -0.0041469   -0.0353857     0.3863567   -0.8813961     0.3806474   -0.8856273     0.0131582    0.0247025 
   0.210289500    -0.0122463   -0.0342189     0.3136694   -0.9065975     0.3052771   -0.9037009     0.0185934    0.0210693 
   0.225288750    -0.0136041   -0.0329362     0.2386622   -0.9329555     0.2351606   -0.9247778     0.0212304    0.0201808 
   0.240288000    -0.0171441   -0.0374207     0.1550255   -0.9581233     0.1614381   -0.9489834     0.0262613    0.0198422 
   0.255287250    -0.0279860   -0.0348673     0.0592135   -0.9727122     0.0726814   -0.9744681     0.0319994    0.0139251 
   0.270286500    -0.0311345   -0.0259310    -0.0362098   -0.9678760    -0.0309930   -0.9800672     0.0321241    0.0072048 
   0.285285750    -0.0313514   -0.0241097    -0.1226790   -0.9484187    -0.1320061   -0.9614909     0.0323568    0.0036387 
   0.300285000    -0.0421345   -0.0209754    -0.1996175   -0.9259295    -0.2174737   -0.9256883     0.0379675   -0.0045793 
   0.315284250    -0.0501416   -0.0057296    -0.2702095   -0.9087880    -0.2809055   -0.8923953     0.0371190   -0.0178046 
   0.330283500    -0.0477271    0.0019991    -0.3508766   -0.8934970    -0.3457849   -0.8737047     0.0332050   -0.0230418 
   0.345282750    -0.0551049    0.0022563    -0.4419847   -0.8659392    -0.4219506   -0.8578390     0.0378073   -0.0287627 
   0.360282000    -0.0679015    0.0155723    -0.5396473   -0.8154446    -0.5185142   -0.8295782     0.0390318   -0.0456917 
   0.375281250    -0.0625856    0.0293620    -0.6155792   -0.7390040    -0.6164072   -0.7647859     0.0267284   -0.0522578 
   0.390280500    -0.0614301    0.0268597    -0.6654616   -0.6649873    -0.6873916   -0.6798520     0.0258663   -0.0513706 
   0.405279750    -0.0705899    0.0302700    -0.7047626   -0.6007510    -0.7319488   -0.5928078     0.0289346   -0.0598118 
   0.420279000    -0.0700670    0.0450785    -0.7464451   -0.5513861    -0.7564753   -0.5225043     0.0162941   -0.0691779 
   0.435278250    -0.0568966    0.0484893    -0.8070340   -0.4955417    -0.7909009   -0.4711904     0.0040251   -0.0636145 
   0.450277500    -0.0535926    0.0442751    -0.8688326   -0.4167692    -0.8392591   -0.4134277     0.0033539   -0.0623000 
   0.465276750    -0.0545996    0.0507589    -0.9178951   -0.3169164    -0.8951280   -0.3383819    -0.0035429   -0.0690385 
   0.480276000    -0.0416224    0.0599734    -0.9377572   -0.2072510    -0.9430566   -0.2346912    -0.0188806   -0.0658808 
   0.495275250    -0.0288287    0.0570773    -0.9339703   -0.1097125    -0.9573786   -0.1195299    -0.0256476   -0.0553773 
   0.510274500    -0.0264252    0.0557699    -0.9260237   -0.0269536    -0.9474183   -0.0153691    -0.0280673   -0.0528099 
   0.525273750    -0.0198587    0.0612802    -0.9233237    0.0480457    -0.9257588    0.0710169    -0.0374729   -0.0509949 
   0.540273000    -0.0090749    0.0596907    -0.9257438    0.1322514    -0.9104375    0.1463566    -0.0434914   -0.0407370 
   0.555272250    -0.0055380    0.0527046    -0.9178883    0.2308517    -0.8996372    0.2277379    -0.0422240   -0.0313707 
   0.570271500    -0.0047309    0.0496713    -0.8901318    0.3339199    -0.8825418    0.3190895    -0.0423468   -0.0255266 
   0.585270750    -0.0022283    0.0448091    -0.8428116    0.4271407    -0.8488328    0.4163074    -0.0414326   -0.0156483 
   0.600270000    -0.0016190    0.0357822    -0.7866964    0.5079422    -0.7963699    0.5071399    -0.0348309   -0.0059084 
   0.615269250    -0.0039818    0.0266832    -0.7292157    0.5818733    -0.7321451    0.5875005    -0.0262738    0.0007221 
   0.630268500    -0.0065966    0.0175695    -0.6663114    0.6540798    -0.6645579    0.6579605    -0.0174984    0.0065499 
   0.645267750    -0.0104400    0.0082402    -0.5934856    0.7217538    -0.5901953    0.7225461    -0.0050614    0.0099711 
   0.660267000    -0.0156678    0.0001937    -0.5104078    0.7796676    -0.5073143    0.7808644     0.0070315    0.0104142 
   0.675266250    -0.0230328   -0.0057571    -0.4226346    0.8265159    -0.4177106    0.8271657     0.0197251    0.0088191 
   0.690265500    -0.0312634   -0.0076610    -0.3333729    0.8668890    -0.3265872    0.8619161     0.0318238    0.0035763 
   0.705264750    -0.0393085   -0.0071704    -0.2368391    0.9032741    -0.2359075    0.8920112     0.0434234   -0.0046513 
   0.720264000    -0.0509439   -0.0053015    -0.1285061    0.9295531    -0.1395015    0.9197206     0.0560555   -0.0145254 
   0.735263250    -0.0650938    0.0042661    -0.0098135    0.9337313    -0.0270546    0.9398097     0.0657301   -0.0315556 
   0.750262500    -0.0735331    0.0171315     0.1026535    0.9107436     0.0978563    0.9327570     0.0679019   -0.0480211 
   0.765261750    -0.0849780    0.0248647     0.1964292    0.8736829     0.2147662    0.8959447     0.0732208   -0.0609130 
   0.780261000    -0.1025178    0.0395377     0.2725033    0.8409142     0.3069496    0.8394919     0.0789449   -0.0819552 
   0.795260250    -0.1101005    0.0633641     0.3524719    0.8230888     0.3743659    0.7912191     0.0688584   -0.1040625 
   0.810259500    -0.1078546    0.0771060     0.4577264    0.8002738     0.4449907    0.7595735     0.0563461   -0.1122861 
   0.825258750    -0.1138855    0.0859872     0.5797507    0.7442893     0.5354179    0.7277001     0.0536151   -0.1226493 
   0.840258000    -0.1169383    0.1044229     0.6892055    0.6420543     0.6463889    0.6709945     0.0404157   -0.1409109 
   0.855257250    -0.0990583    0.1191631     0.7494239    0.5169704     0.7514483    0.5656703     0.0142251   -0.1432525 
   0.870256500    -0.0843495    0.1164394     0.7760857    0.4098061     0.8122578    0.4347146     0.0020493   -0.1348706 
   0.885255750    -0.0748291    0.1180292     0.7983086    0.3248633     0.8334998    0.3125749    -0.0067461   -0.1341504 
   0.900255000    -0.0506318    0.1198613     0.8334602    0.2468130     0.8409771    0.2152105    -0.0238089   -0.1280720 
   0.915254250    -0.0235139    0.1032899     0.8784506    0.1447879     0.8618330    0.1256219    -0.0310239   -0.1098213 
   0.930253500    -0.0074844    0.0797021     0.9059637    0.0163012     0.8873771    0.0150685    -0.0247712   -0.0963914 
   0.945252750     0.0073606    0.0550278     0.9027442   -0.1254724     0.8909444   -0.1209591    -0.0167464   -0.0889829 
   0.960252000     0.0161842    0.0167634     0.8658301   -0.2643409     0.8524998   -0.2607226    -0.0031212   -0.0802299 
   0.975251250     0.0087503   -0.0266385     0.8049449   -0.3930779     0.7888939   -0.3759096     0.0249200   -0.0757451 
   0.990250500    -0.0117408   -0.0738932     0.7168434   -0.5139374     0.7245657   -0.4790627     0.0615113   -0.0872083 
   1.005249750    -0.0558922   -0.1230287     0.6001422   -0.6083286     0.6480492   -0.5954081     0.1004862   -0.1192073 
   1.020249000    -0.1180953   -0.1569445     0.4754998   -0.6624964     0.5155060   -0.7133290     0.1309896   -0.1649566 
   1.035248250    -0.1931795   -0.1836067     0.3673043   -0.6933739     0.3304548   -0.7668748     0.1596760   -0.2257599 
   1.050247500    -0.2937874   -0.1889478     0.2662847   -0.7317374     0.1688839   -0.7309305     0.1679898   -0.3125007 
   1.065246750    -0.3937632   -0.1560374     0.1293216   -0.7762904     0.0811889   -0.6754122     0.1415292   -0.3990960 
   1.080246000    -0.4824392   -0.1072302    -0.0536599   -0.7646754     0.0233882   -0.6631870     0.1001462   -0.4787860 
   1.095245250    -0.5714602   -0.0301835    -0.2127740   -0.6536490    -0.0732038   -0.6828836     0.0283498   -0.5619149 
   1.110244500    -0.6284012    0.0786249    -0.2683643   -0.5132431    -0.2383197   -0.6574821    -0.0771615   -0.6158776 
   1.125243750    -0.6555564    0.1868007    -0.2646069   -0.4279360    -0.3837761   -0.5117102    -0.1826549   -0.6406905 
   1.140243000    -0.6691461    0.3021423    -0.2722622   -0.3946709    -0.3973308   -0.3279215    -0.2983504   -0.6518298 
   1.155242250    -0.6506255    0.4228021    -0.3220800   -0.3675164    -0.3307892   -0.2280926    -0.4194705   -0.6302342 
   1.170241500    -0.6091664    0.5253640    -0.3933062   -0.2904795    -0.2833410   -0.2042980    -0.5229936   -0.5852383 
   1.185240750    -0.5633707    0.6166292    -0.4128494   -0.1576452    -0.2817857   -0.2020588    -0.6142276   -0.5338809 
   1.200240000    -0.5057529    0.7021431    -0.3463870   -0.0498566    -0.3176001   -0.1782469    -0.7004681   -0.4669573 
   1.215239250    -0.4366662    0.7707250    -0.2655688   -0.0205136    -0.3538184   -0.1047689    -0.7677147   -0.3860802 
   1.230238500    -0.3706208    0.8229200    -0.2220184   -0.0299081    -0.3296416   -0.0019941    -0.8178440   -0.3038783 
   1.245237750    -0.3049968    0.8689106    -0.2137541   -0.0390197    -0.2498863    0.0517850    -0.8595609   -0.2190618 
   1.260237000    -0.2346407    0.9050146    -0.2261556   -0.0301249    -0.1858534    0.0462916    -0.8886616   -0.1281627 
   1.275236250    -0.1632818    0.9288729    -0.2363426    0.0089826    -0.1601811    0.0248853    -0.9031648   -0.0378560 
   1.290235500    -0.0945606    0.9452047    -0.2138699    0.0627620    -0.1591725    0.0130520    -0.9086823    0.0505583 
   1.305234750    -0.0229338    0.9550042    -0.1585158    0.0898560    -0.1700795    0.0195255    -0.9067703    0.1377575 
   1.320234000     0.0488507    0.9561474    -0.1138521    0.0780577    -0.1756888    0.0481060    -0.8948966    0.2248433 
   1.335233250     0.1194457    0.9497847    -0.0968731    0.0586755    -0.1535420    0.0870244    -0.8745018    0.3045557 
   1.350232500     0.1868082    0.9395940    -0.0960890    0.0482727    -0.1066168    0.1010431    -0.8494995    0.3805407 
   1.365231750     0.2527018    0.9242401    -0.0999944    0.0508273    -0.0719389    0.0845219    -0.8198388    0.4515511 
   1.380231000     0.3164315    0.9057233    -0.0983808    0.0653496    -0.0607554    0.0639374    -0.7848470    0.5183485 
   1.395230250     0.3738623    0.8861014    -0.0812598    0.0822763    -0.0620520    0.0525249    -0.7466592    0.5795296 
   1.410229500     0.4280384    0.8654208    -0.0535254    0.0835319    -0.0663281    0.0520614    -0.7051120    0.6359383 
   1.425228750     0.4780024    0.8433145    -0.0357056    0.0689300    -0.0666235    0.0609260    -0.6607375    0.6881911 
   1.440228000     0.5229642    0.8196031    -0.0324170    0.0545307    -0.0553901    0.0735083    -0.6121508    0.7362841 
   1.455227250     0.5648063    0.7945556    -0.0357075    0.0477965    -0.0329786    0.0756137    -0.5584794    0.7800325 
   1.470226500     0.6034083    0.7685243    -0.0393089    0.0487754    -0.0163460    0.0621993    -0.5032156    0.8195688 
   1.485225750     0.6390160    0.7408264    -0.0383218    0.0558055    -0.0134446    0.0472271    -0.4442633    0.8545436 
   1.500225000     0.6727472    0.7107248    -0.0279265    0.0634614    -0.0171379    0.0389979    -0.3834408    0.8839068 
   1.515224250     0.7050297    0.6775643    -0.0107498    0.0611444    -0.0217038    0.0371638    -0.3210621    0.9079316 
   1.530223500     0.7359608    0.6421000    -0.0009568    0.0480128    -0.0241919    0.0403806    -0.2593607    0.9259465 
   1.545222750     0.7677583    0.6050503    -0.0016918    0.0364582    -0.0218371    0.0468942    -0.1960383    0.9390545 
   1.560222000     0.7969080    0.5684783    -0.0060489    0.0312479    -0.0117510    0.0520932    -0.1339141    0.9481130 
   1.575221250     0.8246491    0.5335633    -0.0096517    0.0308834     0.0020821    0.0474530    -0.0718414    0.9532846 
   1.590220500     0.8500227    0.4991018    -0.0108424    0.0336173     0.0076234    0.0352291    -0.0086588    0.9560748 
   1.605219750     0.8715663    0.4664644    -0.0080869    0.0374714     0.0049024    0.0263069     0.0540580    0.9559700 
   1.620219000     0.8903052    0.4359978    -0.0007061    0.0388187     0.0004860    0.0228481     0.1160458    0.9540378 
   1.635218250     0.9064535    0.4057183     0.0067384    0.0337147    -0.0027208    0.0228951     0.1769506    0.9490786 
   1.650217500     0.9222044    0.3755679     0.0083306    0.0258727    -0.0038260    0.0248030     0.2365067    0.9426333 
   1.665216750     0.9358039    0.3442366     0.0058704    0.0210380    -0.0023046    0.0274170     0.2920603    0.9320744 
   1.680216000     0.9480189    0.3138639     0.0032326    0.0196607     0.0023560    0.0285934     0.3459986    0.9159403 
   1.695215250     0.9592074    0.2818683     0.0020600    0.0201583     0.0078824    0.0254690     0.3961039    0.8954132 
   1.710214500     0.9680820    0.2495510     0.0028142    0.0210904     0.0097046    0.0194026     0.4458489    0.8705670 
   1.725213750     0.9752001    0.2154993     0.0052358    0.0209998     0.0078776    0.0149982     0.4920180    0.8400958 
   1.740213000     0.9808014    0.1818372     0.0077861    0.0186482     0.0054720    0.0133540     0.5383697    0.8103083 
   1.755212250     0.9850545    0.1461872     0.0082769    0.0150871     0.0040008    0.0133604     0.5833269    0.7786609 
   1.770211500     0.9862396    0.1102625     0.0069588    0.0126587     0.0038092    0.0139129     0.6258464    0.7454615 
   1.785210750     0.9853786    0.0724509     0.0055856    0.0118447     0.0047884    0.0141876     0.6659127    0.7107698 
   1.800210000     0.9850841    0.0365102     0.0051125    0.0118872     0.0064891    0.0134576     0.7064949    0.6751823 
   1.815209250     0.9837386   -0.0004719     0.0057088    0.0119239     0.0076514    0.0113489     0.7429100    0.6380198 
   1.830208500     0.9818537   -0.0364786     0.0071113    0.0110191     0.0074167    0.0090077     0.7782019    0.5992911 
   1.845207750     0.9801304   -0.0691136     0.0079596    0.0087583     0.0063147    0.0076027     0.8084998    0.5595856 
   1.860207000     0.9783686   -0.1006698     0.0071103    0.0063041     0.0053399    0.0071102     0.8360364    0.5152578 
   1.875206250     0.9775674   -0.1308203     0.0054541    0.0052043     0.0049315    0.0070329     0.8580157    0.4695489 
   1.890205500     0.9751403   -0.1593165     0.0041760    0.0052469     0.0050088    0.0068945     0.8782086    0.4203682 
   1.905204750     0.9711667   -0.1878280     0.0036914    0.0057601     0.0053523    0.0063201     0.8948363    0.3687094 
   1.920204000     0.9662350   -0.2155285     0.0039104    0.0062590     0.0055218    0.0052682     0.9085124    0.3172569 
   1.935203250     0.9594521   -0.2442333     0.0048443    0.0063825     0.0051170    0.0041433     0.9232187    0.2671576 
   1.950202500     0.9504011   -0.2730612     0.0061904    0.0053499     0.0043687    0.0034879     0.9368690    0.2135921 
   1.965201750     0.9380928   -0.3031194     0.0063980    0.0030587     0.0037621    0.0032636     0.9477510    0.1618962 
   1.980201000     0.9250818   -0.3326874     0.0048075    0.0014441     0.0034185    0.0032925     0.9564900    0.1114905 
   1.995200250     0.9121141   -0.3633344     0.0032549    0.0013058     0.0034156    0.0032247     0.9640901    0.0623870 
   2.010199500     0.8983852   -0.3943921     0.0024180    0.0017241     0.0036156    0.0029318     0.9690830    0.0138411 
   2.025198750     0.8854359   -0.4244094     0.0021128    0.0021201     0.0037554    0.0022802     0.9717607   -0.0341630 
   2.040198000     0.8738305   -0.4521393     0.0021630    0.0023619     0.0034359    0.0014465     0.9691442   -0.0822998 
   2.055197250     0.8631020   -0.4762996     0.0024253    0.0023574     0.0026920    0.0008790     0.9638007   -0.1282061 
   2.070196500     0.8536062   -0.4996856     0.0028263    0.0018867     0.0020112    0.0007754     0.9542753   -0.1753350 
   2.085195750     0.8436209   -0.5206460     0.0028177    0.0009545     0.0015643    0.0008798     0.9429339   -0.2239099 
   2.100195000     0.8332648   -0.5411787     0.0020902    0.0002834     0.0013309    0.0009844     0.9294131   -0.2709346 
   2.115194250     0.8221982   -0.5592985     0.0013491    0.0002495     0.0012100    0.0010007     0.9154051   -0.3164381 
   2.130193500     0.8095028   -0.5789044     0.0009350    0.0003952     0.0011314    0.0009274     0.8989217   -0.3600772 
   2.145192750     0.7941422   -0.5976516     0.0007193    0.0004863     0.0010599    0.0007448     0.8819247   -0.4029006 
   2.160192000     0.7753202   -0.6180816     0.0005443    0.0005258     0.0009067    0.0004901     0.8637540   -0.4448666 
   2.175191250     0.7550347   -0.6395813     0.0004367    0.0004925     0.0005737    0.0003262     0.8447645   -0.4847144 
   2.190190500     0.7328114   -0.6608786     0.0002504    0.0004145     0.0003067    0.0002713     0.8251191   -0.5238431 
   2.205189750     0.7092367   -0.6829277     0.0000673    0.0003862     0.0000543    0.0002621     0.8024980   -0.5606997 
   2.220189000     0.6874028   -0.7026189    -0.0001314    0.0003394    -0.0001688    0.0002452     0.7767059   -0.5962998 
   2.235188250     0.6648597   -0.7213606    -0.0003146    0.0003253    -0.0003763    0.0002529     0.7482142   -0.6294256 
   2.250187500     0.6446515   -0.7393869    -0.0005031    0.0002806    -0.0005971    0.0002425     0.7185800   -0.6619141 
   2.265186750     0.6254704   -0.7563900    -0.0007392    0.0002310    -0.0008266    0.0003280     0.6850872   -0.6925828 
   2.280186000     0.6072580   -0.7717914    -0.0009869    0.0002596    -0.0009937    0.0004487     0.6502169   -0.7207806 
   2.295185250     0.5897985   -0.7859161    -0.0012532    0.0004181    -0.0010631    0.0005685     0.6157808   -0.7474090 
   2.310184500     0.5720849   -0.7995482    -0.0014065    0.0006527    -0.0011051    0.0005686     0.5796861   -0.7738369 
   2.325183750     0.5527841   -0.8129283    -0.0013580    0.0008696    -0.0011919    0.0005299     0.5428302   -0.7988969 
   2.340183000     0.5342999   -0.8255019    -0.0012231    0.0008150    -0.0013627    0.0004606     0.5053918   -0.8228819 
